
T63B4 001:393 SEGGER J-Link V6.44e Log File (0000ms, 1214ms total)
T63B4 001:393 DLL Compiled: Apr  5 2019 16:15:03 (0000ms, 1214ms total)
T63B4 001:393 Logging started @ 2025-08-21 17:04 (0000ms, 1214ms total)
T63B4 001:393 JLINK_SetWarnOutHandler(...) (0000ms, 1214ms total)
T63B4 001:393 JLINK_OpenEx(...)
Firmware: J-Link V9 compiled Apr 21 2017 11:08:06
Hardware: V9.20
S/N: 29999997
Feature(s): GDB, RDI, FlashBP, FlashDL, JFlash
TELNET listener socket opened on port 19021WEBSRV 
Starting webserver (0571ms, 1785ms total)
T63B4 001:393 WEBSRV Webserver running on local port 19080 (0571ms, 1785ms total)
T63B4 001:393   returns O.K. (0571ms, 1785ms total)
T63B4 001:964 JLINK_SetErrorOutHandler(...) (0000ms, 1785ms total)
T63B4 001:964 JLINK_ExecCommand("ProjectFile = "D:\M14D\PosifaWorkFolder\PosifaFirmwareCollection\PGS7000_Firmware\PGS7000_V0-43\JLinkSettings.ini"", ...). Ref file found at: C:\Keil_v5\ARM\Segger\JLinkDevices.ref (0002ms, 1787ms total)
T63B4 001:964 REF file references invalid XML file: C:\Program Files\SEGGER\JLink_V794i\JLinkDevices.xml (0002ms, 1787ms total)
T63B4 001:964 Device "CORTEX-M0+" selected.  returns 0x00 (0007ms, 1792ms total)
T63B4 001:986 JLINK_ExecCommand("Device = BAT32A237KH40NB", ...). Device "CORTEX-M0+" selected.  returns 0x00 (0055ms, 1847ms total)
T63B4 002:042 JLINK_ExecCommand("DisableConnectionTimeout", ...).   returns 0x01 (0000ms, 1847ms total)
T63B4 002:042 JLINK_GetHardwareVersion()  returns 0x16760 (0000ms, 1847ms total)
T63B4 002:042 JLINK_GetDLLVersion()  returns 64405 (0000ms, 1847ms total)
T63B4 002:042 JLINK_GetFirmwareString(...) (0000ms, 1847ms total)
T63B4 002:085 JLINK_GetDLLVersion()  returns 64405 (0000ms, 1847ms total)
T63B4 002:085 JLINK_GetCompileDateTime() (0000ms, 1847ms total)
T63B4 002:091 JLINK_GetFirmwareString(...) (0000ms, 1847ms total)
T63B4 002:150 JLINK_GetHardwareVersion()  returns 0x16760 (0000ms, 1847ms total)
T63B4 002:173 JLINK_TIF_Select(JLINKARM_TIF_SWD)  returns 0x00 (0001ms, 1848ms total)
T63B4 002:174 JLINK_SetSpeed(5000) (0000ms, 1848ms total)
T63B4 002:174 JLINK_GetId() >0x10B TIF>Found SW-DP with ID 0x0BC11477 >0x0D TIF> >0x28 TIF> >0x0D TIF> >0x28 TIF> >0x0D TIF> >0x28 TIF> >0x0D TIF> >0x28 TIF> >0x0D TIF> >0x21 TIF> >0x0D TIF> >0x28 TIF>Scanning AP map to find all available APs >0x0D TIF> >0x28 TIF> >0x0D TIF> >0x21 TIF> >0x0D TIF> >0x21 TIF> >0x0D TIF> >0x28 TIF> >0x0D TIF> >0x21 TIF> >0x0D TIF> >0x21 TIF>AP[1]: Stopped AP scan as end of AP map has been reachedAP[0]: AHB-AP (IDR: 0x04770031)Iterating through AP map to find AHB-AP to use
 >0x42 TIF> >0x28 TIF> >0x0D TIF> >0x28 TIF> >0x0D TIF> >0x21 TIF> >0x0D TIF> >0x21 TIF> >0x42 TIF> >0x28 TIF> >0x0D TIF> >0x28 TIF> >0x0D TIF> >0x28 TIF> >0x0D TIF> >0x21 TIF> >0x0D TIF> >0x21 TIF>AP[0]: Core foundAP[0]: AHB-AP ROM base: 0xE00FF000 >0x0D TIF> >0x28 TIF> >0x0D TIF> >0x28 TIF> >0x0D TIF> >0x28 TIF> >0x0D TIF> >0x21 TIF> >0x0D TIF> >0x21 TIF>CPUID register: 0x410CC601. Implementer code: 0x41 (ARM)Found Cortex-M0 r0p1, Little endian. -- Max. mem block: 0x00010FF0
 -- CPU_ReadMem(4 bytes @ 0xE000EDF0) -- CPU_WriteMem(4 bytes @ 0xE000EDF0) -- CPU_ReadMem(4 bytes @ 0xE0002000)FPUnit: 4 code (BP) slots and 0 literal slots -- CPU_ReadMem(4 bytes @ 0xE000EDFC) -- CPU_WriteMem(4 bytes @ 0xE000EDFC) -- CPU_ReadMem(4 bytes @ 0xE0001000) -- CPU_WriteMem(4 bytes @ 0xE0001000)CoreSight components:ROMTbl[0] @ E00FF000 -- CPU_ReadMem(16 bytes @ 0xE00FF000) -- CPU_ReadMem(16 bytes @ 0xE000EFF0) -- CPU_ReadMem(16 bytes @ 0xE000EFE0)
ROMTbl[0][0]: E000E000, CID: B105E00D, PID: 000BB008 SCS -- CPU_ReadMem(16 bytes @ 0xE0001FF0) -- CPU_ReadMem(16 bytes @ 0xE0001FE0)ROMTbl[0][1]: E0001000, CID: B105E00D, PID: 000BB00A DWT -- CPU_ReadMem(16 bytes @ 0xE0002FF0) -- CPU_ReadMem(16 bytes @ 0xE0002FE0)ROMTbl[0][2]: E0002000, CID: B105E00D, PID: 000BB00B FPB >0x0D TIF> >0x21 TIF>  returns 0x0BC11477 (0187ms, 2035ms total)
T63B4 002:361 JLINK_GetDLLVersion()  returns 64405 (0000ms, 2035ms total)
T63B4 002:361 JLINK_CORE_GetFound()  returns 0x60000FF (0000ms, 2035ms total)
T63B4 002:361 JLINK_GetDebugInfo(0x100 = JLINKARM_ROM_TABLE_ADDR_INDEX) -- Value=0xE00FF000  returns 0x00 (0000ms, 2035ms total)
T63B4 002:366 JLINK_ReadMem (0xE00FF000, 0x0020 Bytes, ...) -- CPU_ReadMem(32 bytes @ 0xE00FF000) - Data: 03 F0 F0 FF 03 20 F0 FF 03 30 F0 FF 00 00 00 00 ...  returns 0x00 (0002ms, 2037ms total)
T63B4 002:368 JLINK_ReadMem (0xE000EFF0, 0x0010 Bytes, ...) -- CPU_ReadMem(16 bytes @ 0xE000EFF0) - Data: 0D 00 00 00 E0 00 00 00 05 00 00 00 B1 00 00 00  returns 0x00 (0000ms, 2037ms total)
T63B4 002:368 JLINK_ReadMem (0xE000EFD0, 0x0020 Bytes, ...) -- CPU_ReadMem(32 bytes @ 0xE000EFD0) - Data: 04 00 00 00 00 00 00 00 00 00 00 00 00 00 00 00 ...  returns 0x00 (0000ms, 2037ms total)
T63B4 002:368 JLINK_ReadMem (0xE0001FF0, 0x0010 Bytes, ...) -- CPU_ReadMem(16 bytes @ 0xE0001FF0) - Data: 0D 00 00 00 E0 00 00 00 05 00 00 00 B1 00 00 00  returns 0x00 (0001ms, 2038ms total)
T63B4 002:369 JLINK_ReadMem (0xE0001FD0, 0x0020 Bytes, ...) -- CPU_ReadMem(32 bytes @ 0xE0001FD0) - Data: 04 00 00 00 00 00 00 00 00 00 00 00 00 00 00 00 ...  returns 0x00 (0000ms, 2038ms total)
T63B4 002:369 JLINK_ReadMem (0xE0002FF0, 0x0010 Bytes, ...) -- CPU_ReadMem(16 bytes @ 0xE0002FF0) - Data: 0D 00 00 00 E0 00 00 00 05 00 00 00 B1 00 00 00  returns 0x00 (0000ms, 2038ms total)
T63B4 002:369 JLINK_ReadMem (0xE0002FD0, 0x0020 Bytes, ...) -- CPU_ReadMem(32 bytes @ 0xE0002FD0) - Data: 04 00 00 00 00 00 00 00 00 00 00 00 00 00 00 00 ...  returns 0x00 (0001ms, 2039ms total)
T63B4 002:370 JLINK_ReadMemU32(0xE000ED00, 0x0001 Items, ...) -- CPU_ReadMem(4 bytes @ 0xE000ED00) - Data: 01 C6 0C 41  returns 1 (0000ms, 2039ms total)
T63B4 002:370 JLINK_SetResetType(JLINKARM_CM3_RESET_TYPE_NORMAL)  returns JLINKARM_CM3_RESET_TYPE_NORMAL (0000ms, 2039ms total)
T63B4 002:370 JLINK_Reset() -- CPU is running -- CPU_WriteMem(4 bytes @ 0xE000EDF0) -- CPU is running -- CPU_WriteMem(4 bytes @ 0xE000EDFC)Reset: Halt core after reset via DEMCR.VC_CORERESET. >0x35 TIF>Reset: Reset device via AIRCR.SYSRESETREQ. -- CPU is running -- CPU_WriteMem(4 bytes @ 0xE000ED0C) >0x0D TIF> >0x28 TIF> -- CPU_ReadMem(4 bytes @ 0xE000EDF0) -- CPU_ReadMem(4 bytes @ 0xE000EDF0) -- CPU is running -- CPU_WriteMem(4 bytes @ 0xE000EDF0) -- CPU is running -- CPU_WriteMem(4 bytes @ 0xE000EDFC)
 -- CPU_ReadMem(4 bytes @ 0xE000EDF0) -- CPU_WriteMem(4 bytes @ 0xE0002000) -- CPU_ReadMem(4 bytes @ 0xE000EDFC) -- CPU_ReadMem(4 bytes @ 0xE0001000) -- CPU_WriteMem(4 bytes @ 0xE0001000) (0068ms, 2107ms total)
T63B4 002:438 JLINK_Halt()  returns 0x00 (0000ms, 2107ms total)
T63B4 002:438 JLINK_IsHalted()  returns TRUE (0000ms, 2107ms total)
T63B4 002:438 JLINK_ReadMemU32(0xE000EDF0, 0x0001 Items, ...) -- CPU_ReadMem(4 bytes @ 0xE000EDF0) - Data: 03 00 03 00  returns 1 (0000ms, 2107ms total)
T63B4 002:438 JLINK_WriteU32(0xE000EDF0, 0xA05F0003) -- CPU_WriteMem(4 bytes @ 0xE000EDF0)  returns 0 (0001ms, 2108ms total)
T63B4 002:439 JLINK_WriteU32(0xE000EDFC, 0x01000000) -- CPU_WriteMem(4 bytes @ 0xE000EDFC)  returns 0 (0000ms, 2108ms total)
T63B4 002:455 JLINK_GetHWStatus(...)  returns 0x00 (0000ms, 2108ms total)
T63B4 002:467 JLINK_GetNumBPUnits(Type = 0xFFFFFF00)  returns 0x04 (0000ms, 2108ms total)
T63B4 002:467 JLINK_GetNumBPUnits(Type = 0xF0)  returns 0x2000 (0000ms, 2108ms total)
T63B4 002:467 JLINK_GetNumWPUnits()  returns 0x02 (0000ms, 2108ms total)
T63B4 002:478 JLINK_GetSpeed()  returns 0xFA0 (0000ms, 2108ms total)
T63B4 002:484 JLINK_ReadMemU32(0xE000E004, 0x0001 Items, ...) -- CPU_ReadMem(4 bytes @ 0xE000E004) - Data: 00 00 00 00  returns 1 (0000ms, 2108ms total)
T63B4 002:484 JLINK_Halt()  returns 0x00 (0000ms, 2108ms total)
T63B4 002:484 JLINK_IsHalted()  returns TRUE (0000ms, 2108ms total)
T63B4 002:488 JLINK_WriteMem(0x20000000, 0x011C Bytes, ...) - Data: 00 BE 0A E0 0D 78 2D 06 68 40 08 24 40 00 00 D3 ... -- CPU_WriteMem(284 bytes @ 0x20000000)  returns 0x11C (0001ms, 2109ms total)
T63B4 002:489 JLINK_WriteReg(R0, 0x00000000)  returns 0x00 (0000ms, 2109ms total)
T63B4 002:489 JLINK_WriteReg(R1, 0x00B71B00)  returns 0x00 (0000ms, 2109ms total)
T63B4 002:489 JLINK_WriteReg(R2, 0x00000001)  returns 0x00 (0000ms, 2109ms total)
T63B4 002:489 JLINK_WriteReg(R3, 0x00000000)  returns 0x00 (0000ms, 2109ms total)
T63B4 002:489 JLINK_WriteReg(R4, 0x00000000)  returns 0x00 (0000ms, 2109ms total)
T63B4 002:489 JLINK_WriteReg(R5, 0x00000000)  returns 0x00 (0000ms, 2109ms total)
T63B4 002:489 JLINK_WriteReg(R6, 0x00000000)  returns 0x00 (0000ms, 2109ms total)
T63B4 002:489 JLINK_WriteReg(R7, 0x00000000)  returns 0x00 (0000ms, 2109ms total)
T63B4 002:489 JLINK_WriteReg(R8, 0x00000000)  returns 0x00 (0000ms, 2109ms total)
T63B4 002:489 JLINK_WriteReg(R9, 0x20000118)  returns 0x00 (0000ms, 2109ms total)
T63B4 002:489 JLINK_WriteReg(R10, 0x00000000)  returns 0x00 (0000ms, 2109ms total)
T63B4 002:489 JLINK_WriteReg(R11, 0x00000000)  returns 0x00 (0000ms, 2109ms total)
T63B4 002:489 JLINK_WriteReg(R12, 0x00000000)  returns 0x00 (0000ms, 2109ms total)
T63B4 002:489 JLINK_WriteReg(R13 (SP), 0x20001000)  returns 0x00 (0000ms, 2109ms total)
T63B4 002:491 JLINK_WriteReg(R14, 0x20000001)  returns 0x00 (0000ms, 2109ms total)
T63B4 002:491 JLINK_WriteReg(R15 (PC), 0x20000038)  returns 0x00 (0000ms, 2109ms total)
T63B4 002:491 JLINK_WriteReg(XPSR, 0x01000000)  returns 0x00 (0000ms, 2109ms total)
T63B4 002:491 JLINK_WriteReg(MSP, 0x20001000)  returns 0x00 (0000ms, 2109ms total)
T63B4 002:491 JLINK_WriteReg(PSP, 0x20001000)  returns 0x00 (0000ms, 2109ms total)
T63B4 002:491 JLINK_WriteReg(CFBP, 0x00000000)  returns 0x00 (0000ms, 2109ms total)
T63B4 002:491 JLINK_SetBPEx(Addr = 0x20000000, Type = 0xFFFFFFF2) -- CPU_ReadMem(4 bytes @ 0x20000000) -- CPU_WriteMem(4 bytes @ 0x20000000) -- CPU_ReadMem(4 bytes @ 0x20000000) -- CPU_WriteMem(4 bytes @ 0x20000000) -- CPU_ReadMem(2 bytes @ 0x20000000)  returns 0x00000001 (0001ms, 2110ms total)
T63B4 002:492 JLINK_Go() -- CPU_WriteMem(2 bytes @ 0x20000000) -- CPU_ReadMem(4 bytes @ 0xE0001000) -- CPU_WriteMem(4 bytes @ 0xE0001000) -- CPU_WriteMem(4 bytes @ 0xE0002008) -- CPU_WriteMem(4 bytes @ 0xE000200C) -- CPU_WriteMem(4 bytes @ 0xE0002010) -- CPU_WriteMem(4 bytes @ 0xE0002014) -- CPU_WriteMem(4 bytes @ 0xE0001004) (0003ms, 2113ms total)
T63B4 002:495 JLINK_IsHalted() -- CPU_ReadMem(2 bytes @ 0x20000000)  returns TRUE (0002ms, 2115ms total)
T63B4 002:497 JLINK_ReadReg(R15 (PC))  returns 0x20000000 (0000ms, 2113ms total)
T63B4 002:497 JLINK_ClrBPEx(BPHandle = 0x00000001)  returns 0x00 (0000ms, 2113ms total)
T63B4 002:497 JLINK_ReadReg(R0)  returns 0x00000000 (0000ms, 2113ms total)
T63B4 002:497 JLINK_WriteReg(R0, 0x00000000)  returns 0x00 (0000ms, 2113ms total)
T63B4 002:497 JLINK_WriteReg(R1, 0x00000200)  returns 0x00 (0000ms, 2113ms total)
T63B4 002:497 JLINK_WriteReg(R2, 0x000000FF)  returns 0x00 (0000ms, 2113ms total)
T63B4 002:497 JLINK_WriteReg(R3, 0x00000000)  returns 0x00 (0000ms, 2113ms total)
T63B4 002:497 JLINK_WriteReg(R4, 0x00000000)  returns 0x00 (0000ms, 2113ms total)
T63B4 002:497 JLINK_WriteReg(R5, 0x00000000)  returns 0x00 (0000ms, 2113ms total)
T63B4 002:497 JLINK_WriteReg(R6, 0x00000000)  returns 0x00 (0000ms, 2113ms total)
T63B4 002:497 JLINK_WriteReg(R7, 0x00000000)  returns 0x00 (0000ms, 2113ms total)
T63B4 002:497 JLINK_WriteReg(R8, 0x00000000)  returns 0x00 (0000ms, 2113ms total)
T63B4 002:497 JLINK_WriteReg(R9, 0x20000118)  returns 0x00 (0000ms, 2113ms total)
T63B4 002:497 JLINK_WriteReg(R10, 0x00000000)  returns 0x00 (0000ms, 2113ms total)
T63B4 002:497 JLINK_WriteReg(R11, 0x00000000)  returns 0x00 (0000ms, 2113ms total)
T63B4 002:497 JLINK_WriteReg(R12, 0x00000000)  returns 0x00 (0000ms, 2113ms total)
T63B4 002:497 JLINK_WriteReg(R13 (SP), 0x20001000)  returns 0x00 (0000ms, 2113ms total)
T63B4 002:497 JLINK_WriteReg(R14, 0x20000001)  returns 0x00 (0000ms, 2113ms total)
T63B4 002:497 JLINK_WriteReg(R15 (PC), 0x20000020)  returns 0x00 (0000ms, 2113ms total)
T63B4 002:497 JLINK_WriteReg(XPSR, 0x01000000)  returns 0x00 (0000ms, 2113ms total)
T63B4 002:497 JLINK_WriteReg(MSP, 0x20001000)  returns 0x00 (0000ms, 2113ms total)
T63B4 002:497 JLINK_WriteReg(PSP, 0x20001000)  returns 0x00 (0000ms, 2113ms total)
T63B4 002:497 JLINK_WriteReg(CFBP, 0x00000000)  returns 0x00 (0000ms, 2113ms total)
T63B4 002:497 JLINK_SetBPEx(Addr = 0x20000000, Type = 0xFFFFFFF2)  returns 0x00000002 (0000ms, 2113ms total)
T63B4 002:497 JLINK_Go() -- CPU_ReadMem(4 bytes @ 0xE0001000) -- CPU_WriteMem(4 bytes @ 0xE0001000) (0004ms, 2117ms total)
T63B4 002:501 JLINK_IsHalted() -- CPU_ReadMem(2 bytes @ 0x20000000)  returns TRUE (0002ms, 2119ms total)
T63B4 002:503 JLINK_ReadReg(R15 (PC))  returns 0x20000000 (0000ms, 2117ms total)
T63B4 002:503 JLINK_ClrBPEx(BPHandle = 0x00000002)  returns 0x00 (0000ms, 2117ms total)
T63B4 002:503 JLINK_ReadReg(R0)  returns 0x00000001 (0000ms, 2117ms total)
T63B4 002:503 JLINK_WriteReg(R0, 0x00000000)  returns 0x00 (0000ms, 2117ms total)
T63B4 002:503 JLINK_WriteReg(R1, 0x00000200)  returns 0x00 (0000ms, 2117ms total)
T63B4 002:503 JLINK_WriteReg(R2, 0x000000FF)  returns 0x00 (0000ms, 2117ms total)
T63B4 002:503 JLINK_WriteReg(R3, 0x00000000)  returns 0x00 (0000ms, 2117ms total)
T63B4 002:503 JLINK_WriteReg(R4, 0x00000000)  returns 0x00 (0000ms, 2117ms total)
T63B4 002:503 JLINK_WriteReg(R5, 0x00000000)  returns 0x00 (0000ms, 2117ms total)
T63B4 002:503 JLINK_WriteReg(R6, 0x00000000)  returns 0x00 (0000ms, 2117ms total)
T63B4 002:503 JLINK_WriteReg(R7, 0x00000000)  returns 0x00 (0000ms, 2117ms total)
T63B4 002:503 JLINK_WriteReg(R8, 0x00000000)  returns 0x00 (0000ms, 2117ms total)
T63B4 002:503 JLINK_WriteReg(R9, 0x20000118)  returns 0x00 (0000ms, 2117ms total)
T63B4 002:503 JLINK_WriteReg(R10, 0x00000000)  returns 0x00 (0000ms, 2117ms total)
T63B4 002:503 JLINK_WriteReg(R11, 0x00000000)  returns 0x00 (0000ms, 2117ms total)
T63B4 002:503 JLINK_WriteReg(R12, 0x00000000)  returns 0x00 (0000ms, 2117ms total)
T63B4 002:503 JLINK_WriteReg(R13 (SP), 0x20001000)  returns 0x00 (0000ms, 2117ms total)
T63B4 002:503 JLINK_WriteReg(R14, 0x20000001)  returns 0x00 (0000ms, 2117ms total)
T63B4 002:503 JLINK_WriteReg(R15 (PC), 0x20000084)  returns 0x00 (0000ms, 2117ms total)
T63B4 002:503 JLINK_WriteReg(XPSR, 0x01000000)  returns 0x00 (0000ms, 2117ms total)
T63B4 002:503 JLINK_WriteReg(MSP, 0x20001000)  returns 0x00 (0000ms, 2117ms total)
T63B4 002:503 JLINK_WriteReg(PSP, 0x20001000)  returns 0x00 (0000ms, 2117ms total)
T63B4 002:503 JLINK_WriteReg(CFBP, 0x00000000)  returns 0x00 (0000ms, 2117ms total)
T63B4 002:503 JLINK_SetBPEx(Addr = 0x20000000, Type = 0xFFFFFFF2)  returns 0x00000003 (0000ms, 2117ms total)
T63B4 002:503 JLINK_Go() -- CPU_ReadMem(4 bytes @ 0xE0001000) -- CPU_WriteMem(4 bytes @ 0xE0001000) (0002ms, 2119ms total)
T63B4 002:505 JLINK_IsHalted()  returns FALSE (0000ms, 2119ms total)
T63B4 002:612 JLINK_IsHalted() -- CPU_ReadMem(2 bytes @ 0x20000000)  returns TRUE (0002ms, 2121ms total)
T63B4 002:614 JLINK_ReadReg(R15 (PC))  returns 0x20000000 (0000ms, 2119ms total)
T63B4 002:614 JLINK_ClrBPEx(BPHandle = 0x00000003)  returns 0x00 (0000ms, 2119ms total)
T63B4 002:614 JLINK_ReadReg(R0)  returns 0x00000000 (0000ms, 2119ms total)
T63B4 002:614 JLINK_WriteReg(R0, 0x00000200)  returns 0x00 (0000ms, 2119ms total)
T63B4 002:614 JLINK_WriteReg(R1, 0x00000200)  returns 0x00 (0000ms, 2119ms total)
T63B4 002:614 JLINK_WriteReg(R2, 0x000000FF)  returns 0x00 (0000ms, 2119ms total)
T63B4 002:615 JLINK_WriteReg(R3, 0x00000000)  returns 0x00 (0000ms, 2120ms total)
T63B4 002:615 JLINK_WriteReg(R4, 0x00000000)  returns 0x00 (0000ms, 2120ms total)
T63B4 002:615 JLINK_WriteReg(R5, 0x00000000)  returns 0x00 (0000ms, 2120ms total)
T63B4 002:615 JLINK_WriteReg(R6, 0x00000000)  returns 0x00 (0000ms, 2120ms total)
T63B4 002:615 JLINK_WriteReg(R7, 0x00000000)  returns 0x00 (0000ms, 2120ms total)
T63B4 002:615 JLINK_WriteReg(R8, 0x00000000)  returns 0x00 (0000ms, 2120ms total)
T63B4 002:615 JLINK_WriteReg(R9, 0x20000118)  returns 0x00 (0000ms, 2120ms total)
T63B4 002:615 JLINK_WriteReg(R10, 0x00000000)  returns 0x00 (0000ms, 2120ms total)
T63B4 002:615 JLINK_WriteReg(R11, 0x00000000)  returns 0x00 (0000ms, 2120ms total)
T63B4 002:615 JLINK_WriteReg(R12, 0x00000000)  returns 0x00 (0000ms, 2120ms total)
T63B4 002:615 JLINK_WriteReg(R13 (SP), 0x20001000)  returns 0x00 (0000ms, 2120ms total)
T63B4 002:615 JLINK_WriteReg(R14, 0x20000001)  returns 0x00 (0000ms, 2120ms total)
T63B4 002:615 JLINK_WriteReg(R15 (PC), 0x20000020)  returns 0x00 (0000ms, 2120ms total)
T63B4 002:615 JLINK_WriteReg(XPSR, 0x01000000)  returns 0x00 (0000ms, 2120ms total)
T63B4 002:615 JLINK_WriteReg(MSP, 0x20001000)  returns 0x00 (0000ms, 2120ms total)
T63B4 002:615 JLINK_WriteReg(PSP, 0x20001000)  returns 0x00 (0000ms, 2120ms total)
T63B4 002:615 JLINK_WriteReg(CFBP, 0x00000000)  returns 0x00 (0000ms, 2120ms total)
T63B4 002:615 JLINK_SetBPEx(Addr = 0x20000000, Type = 0xFFFFFFF2)  returns 0x00000004 (0000ms, 2120ms total)
T63B4 002:615 JLINK_Go() -- CPU_ReadMem(4 bytes @ 0xE0001000) -- CPU_WriteMem(4 bytes @ 0xE0001000) (0002ms, 2122ms total)
T63B4 002:617 JLINK_IsHalted() -- CPU_ReadMem(2 bytes @ 0x20000000)  returns TRUE (0001ms, 2123ms total)
T63B4 002:618 JLINK_ReadReg(R15 (PC))  returns 0x20000000 (0000ms, 2122ms total)
T63B4 002:618 JLINK_ClrBPEx(BPHandle = 0x00000004)  returns 0x00 (0000ms, 2122ms total)
T63B4 002:619 JLINK_ReadReg(R0)  returns 0x00000001 (0000ms, 2123ms total)
T63B4 002:619 JLINK_WriteReg(R0, 0x00000200)  returns 0x00 (0000ms, 2123ms total)
T63B4 002:619 JLINK_WriteReg(R1, 0x00000200)  returns 0x00 (0000ms, 2123ms total)
T63B4 002:619 JLINK_WriteReg(R2, 0x000000FF)  returns 0x00 (0000ms, 2123ms total)
T63B4 002:619 JLINK_WriteReg(R3, 0x00000000)  returns 0x00 (0000ms, 2123ms total)
T63B4 002:619 JLINK_WriteReg(R4, 0x00000000)  returns 0x00 (0000ms, 2123ms total)
T63B4 002:619 JLINK_WriteReg(R5, 0x00000000)  returns 0x00 (0000ms, 2123ms total)
T63B4 002:619 JLINK_WriteReg(R6, 0x00000000)  returns 0x00 (0000ms, 2123ms total)
T63B4 002:619 JLINK_WriteReg(R7, 0x00000000)  returns 0x00 (0000ms, 2123ms total)
T63B4 002:619 JLINK_WriteReg(R8, 0x00000000)  returns 0x00 (0000ms, 2123ms total)
T63B4 002:619 JLINK_WriteReg(R9, 0x20000118)  returns 0x00 (0000ms, 2123ms total)
T63B4 002:619 JLINK_WriteReg(R10, 0x00000000)  returns 0x00 (0000ms, 2123ms total)
T63B4 002:619 JLINK_WriteReg(R11, 0x00000000)  returns 0x00 (0000ms, 2123ms total)
T63B4 002:619 JLINK_WriteReg(R12, 0x00000000)  returns 0x00 (0000ms, 2123ms total)
T63B4 002:619 JLINK_WriteReg(R13 (SP), 0x20001000)  returns 0x00 (0000ms, 2123ms total)
T63B4 002:619 JLINK_WriteReg(R14, 0x20000001)  returns 0x00 (0000ms, 2123ms total)
T63B4 002:619 JLINK_WriteReg(R15 (PC), 0x20000084)  returns 0x00 (0000ms, 2123ms total)
T63B4 002:619 JLINK_WriteReg(XPSR, 0x01000000)  returns 0x00 (0000ms, 2123ms total)
T63B4 002:619 JLINK_WriteReg(MSP, 0x20001000)  returns 0x00 (0000ms, 2123ms total)
T63B4 002:619 JLINK_WriteReg(PSP, 0x20001000)  returns 0x00 (0000ms, 2123ms total)
T63B4 002:619 JLINK_WriteReg(CFBP, 0x00000000)  returns 0x00 (0000ms, 2123ms total)
T63B4 002:619 JLINK_SetBPEx(Addr = 0x20000000, Type = 0xFFFFFFF2)  returns 0x00000005 (0000ms, 2123ms total)
T63B4 002:619 JLINK_Go() -- CPU_ReadMem(4 bytes @ 0xE0001000) -- CPU_WriteMem(4 bytes @ 0xE0001000) (0003ms, 2126ms total)
T63B4 002:622 JLINK_IsHalted()  returns FALSE (0000ms, 2126ms total)
T63B4 002:630 JLINK_IsHalted() -- CPU_ReadMem(2 bytes @ 0x20000000)  returns TRUE (0003ms, 2129ms total)
T63B4 002:633 JLINK_ReadReg(R15 (PC))  returns 0x20000000 (0000ms, 2126ms total)
T63B4 002:633 JLINK_ClrBPEx(BPHandle = 0x00000005)  returns 0x00 (0000ms, 2126ms total)
T63B4 002:633 JLINK_ReadReg(R0)  returns 0x00000000 (0000ms, 2126ms total)
T63B4 002:634 JLINK_WriteReg(R0, 0x00000400)  returns 0x00 (0000ms, 2126ms total)
T63B4 002:634 JLINK_WriteReg(R1, 0x00000200)  returns 0x00 (0000ms, 2126ms total)
T63B4 002:634 JLINK_WriteReg(R2, 0x000000FF)  returns 0x00 (0000ms, 2126ms total)
T63B4 002:634 JLINK_WriteReg(R3, 0x00000000)  returns 0x00 (0000ms, 2126ms total)
T63B4 002:634 JLINK_WriteReg(R4, 0x00000000)  returns 0x00 (0000ms, 2126ms total)
T63B4 002:634 JLINK_WriteReg(R5, 0x00000000)  returns 0x00 (0000ms, 2126ms total)
T63B4 002:634 JLINK_WriteReg(R6, 0x00000000)  returns 0x00 (0000ms, 2126ms total)
T63B4 002:634 JLINK_WriteReg(R7, 0x00000000)  returns 0x00 (0000ms, 2126ms total)
T63B4 002:634 JLINK_WriteReg(R8, 0x00000000)  returns 0x00 (0000ms, 2126ms total)
T63B4 002:634 JLINK_WriteReg(R9, 0x20000118)  returns 0x00 (0000ms, 2126ms total)
T63B4 002:634 JLINK_WriteReg(R10, 0x00000000)  returns 0x00 (0000ms, 2126ms total)
T63B4 002:634 JLINK_WriteReg(R11, 0x00000000)  returns 0x00 (0000ms, 2126ms total)
T63B4 002:634 JLINK_WriteReg(R12, 0x00000000)  returns 0x00 (0000ms, 2126ms total)
T63B4 002:634 JLINK_WriteReg(R13 (SP), 0x20001000)  returns 0x00 (0000ms, 2126ms total)
T63B4 002:634 JLINK_WriteReg(R14, 0x20000001)  returns 0x00 (0001ms, 2127ms total)
T63B4 002:635 JLINK_WriteReg(R15 (PC), 0x20000020)  returns 0x00 (0000ms, 2127ms total)
T63B4 002:635 JLINK_WriteReg(XPSR, 0x01000000)  returns 0x00 (0000ms, 2127ms total)
T63B4 002:635 JLINK_WriteReg(MSP, 0x20001000)  returns 0x00 (0000ms, 2127ms total)
T63B4 002:635 JLINK_WriteReg(PSP, 0x20001000)  returns 0x00 (0000ms, 2127ms total)
T63B4 002:635 JLINK_WriteReg(CFBP, 0x00000000)  returns 0x00 (0000ms, 2127ms total)
T63B4 002:635 JLINK_SetBPEx(Addr = 0x20000000, Type = 0xFFFFFFF2)  returns 0x00000006 (0000ms, 2127ms total)
T63B4 002:635 JLINK_Go() -- CPU_ReadMem(4 bytes @ 0xE0001000) -- CPU_WriteMem(4 bytes @ 0xE0001000) (0002ms, 2129ms total)
T63B4 002:637 JLINK_IsHalted() -- CPU_ReadMem(2 bytes @ 0x20000000)  returns TRUE (0003ms, 2132ms total)
T63B4 002:640 JLINK_ReadReg(R15 (PC))  returns 0x20000000 (0000ms, 2129ms total)
T63B4 002:640 JLINK_ClrBPEx(BPHandle = 0x00000006)  returns 0x00 (0000ms, 2129ms total)
T63B4 002:640 JLINK_ReadReg(R0)  returns 0x00000001 (0000ms, 2129ms total)
T63B4 002:640 JLINK_WriteReg(R0, 0x00000400)  returns 0x00 (0000ms, 2129ms total)
T63B4 002:640 JLINK_WriteReg(R1, 0x00000200)  returns 0x00 (0000ms, 2129ms total)
T63B4 002:640 JLINK_WriteReg(R2, 0x000000FF)  returns 0x00 (0000ms, 2129ms total)
T63B4 002:640 JLINK_WriteReg(R3, 0x00000000)  returns 0x00 (0000ms, 2129ms total)
T63B4 002:640 JLINK_WriteReg(R4, 0x00000000)  returns 0x00 (0000ms, 2129ms total)
T63B4 002:640 JLINK_WriteReg(R5, 0x00000000)  returns 0x00 (0000ms, 2129ms total)
T63B4 002:640 JLINK_WriteReg(R6, 0x00000000)  returns 0x00 (0000ms, 2129ms total)
T63B4 002:640 JLINK_WriteReg(R7, 0x00000000)  returns 0x00 (0000ms, 2129ms total)
T63B4 002:640 JLINK_WriteReg(R8, 0x00000000)  returns 0x00 (0000ms, 2129ms total)
T63B4 002:640 JLINK_WriteReg(R9, 0x20000118)  returns 0x00 (0000ms, 2129ms total)
T63B4 002:640 JLINK_WriteReg(R10, 0x00000000)  returns 0x00 (0000ms, 2129ms total)
T63B4 002:640 JLINK_WriteReg(R11, 0x00000000)  returns 0x00 (0000ms, 2129ms total)
T63B4 002:640 JLINK_WriteReg(R12, 0x00000000)  returns 0x00 (0000ms, 2129ms total)
T63B4 002:640 JLINK_WriteReg(R13 (SP), 0x20001000)  returns 0x00 (0000ms, 2129ms total)
T63B4 002:640 JLINK_WriteReg(R14, 0x20000001)  returns 0x00 (0000ms, 2129ms total)
T63B4 002:640 JLINK_WriteReg(R15 (PC), 0x20000084)  returns 0x00 (0000ms, 2129ms total)
T63B4 002:640 JLINK_WriteReg(XPSR, 0x01000000)  returns 0x00 (0000ms, 2129ms total)
T63B4 002:640 JLINK_WriteReg(MSP, 0x20001000)  returns 0x00 (0000ms, 2129ms total)
T63B4 002:640 JLINK_WriteReg(PSP, 0x20001000)  returns 0x00 (0000ms, 2129ms total)
T63B4 002:640 JLINK_WriteReg(CFBP, 0x00000000)  returns 0x00 (0000ms, 2129ms total)
T63B4 002:640 JLINK_SetBPEx(Addr = 0x20000000, Type = 0xFFFFFFF2)  returns 0x00000007 (0000ms, 2129ms total)
T63B4 002:640 JLINK_Go() -- CPU_ReadMem(4 bytes @ 0xE0001000) -- CPU_WriteMem(4 bytes @ 0xE0001000) (0002ms, 2131ms total)
T63B4 002:642 JLINK_IsHalted()  returns FALSE (0000ms, 2131ms total)
T63B4 002:649 JLINK_IsHalted() -- CPU_ReadMem(2 bytes @ 0x20000000)  returns TRUE (0001ms, 2132ms total)
T63B4 002:650 JLINK_ReadReg(R15 (PC))  returns 0x20000000 (0000ms, 2131ms total)
T63B4 002:650 JLINK_ClrBPEx(BPHandle = 0x00000007)  returns 0x00 (0000ms, 2131ms total)
T63B4 002:650 JLINK_ReadReg(R0)  returns 0x00000000 (0000ms, 2131ms total)
T63B4 002:652 JLINK_WriteReg(R0, 0x00000600)  returns 0x00 (0000ms, 2131ms total)
T63B4 002:652 JLINK_WriteReg(R1, 0x00000200)  returns 0x00 (0000ms, 2131ms total)
T63B4 002:652 JLINK_WriteReg(R2, 0x000000FF)  returns 0x00 (0000ms, 2131ms total)
T63B4 002:652 JLINK_WriteReg(R3, 0x00000000)  returns 0x00 (0000ms, 2131ms total)
T63B4 002:652 JLINK_WriteReg(R4, 0x00000000)  returns 0x00 (0000ms, 2131ms total)
T63B4 002:652 JLINK_WriteReg(R5, 0x00000000)  returns 0x00 (0000ms, 2131ms total)
T63B4 002:652 JLINK_WriteReg(R6, 0x00000000)  returns 0x00 (0000ms, 2131ms total)
T63B4 002:652 JLINK_WriteReg(R7, 0x00000000)  returns 0x00 (0000ms, 2131ms total)
T63B4 002:652 JLINK_WriteReg(R8, 0x00000000)  returns 0x00 (0000ms, 2131ms total)
T63B4 002:652 JLINK_WriteReg(R9, 0x20000118)  returns 0x00 (0000ms, 2131ms total)
T63B4 002:652 JLINK_WriteReg(R10, 0x00000000)  returns 0x00 (0000ms, 2131ms total)
T63B4 002:652 JLINK_WriteReg(R11, 0x00000000)  returns 0x00 (0000ms, 2131ms total)
T63B4 002:652 JLINK_WriteReg(R12, 0x00000000)  returns 0x00 (0000ms, 2131ms total)
T63B4 002:652 JLINK_WriteReg(R13 (SP), 0x20001000)  returns 0x00 (0000ms, 2131ms total)
T63B4 002:652 JLINK_WriteReg(R14, 0x20000001)  returns 0x00 (0000ms, 2131ms total)
T63B4 002:652 JLINK_WriteReg(R15 (PC), 0x20000020)  returns 0x00 (0001ms, 2132ms total)
T63B4 002:653 JLINK_WriteReg(XPSR, 0x01000000)  returns 0x00 (0000ms, 2132ms total)
T63B4 002:653 JLINK_WriteReg(MSP, 0x20001000)  returns 0x00 (0000ms, 2132ms total)
T63B4 002:653 JLINK_WriteReg(PSP, 0x20001000)  returns 0x00 (0000ms, 2132ms total)
T63B4 002:653 JLINK_WriteReg(CFBP, 0x00000000)  returns 0x00 (0000ms, 2132ms total)
T63B4 002:653 JLINK_SetBPEx(Addr = 0x20000000, Type = 0xFFFFFFF2)  returns 0x00000008 (0000ms, 2132ms total)
T63B4 002:653 JLINK_Go() -- CPU_ReadMem(4 bytes @ 0xE0001000) -- CPU_WriteMem(4 bytes @ 0xE0001000) (0002ms, 2134ms total)
T63B4 002:655 JLINK_IsHalted() -- CPU_ReadMem(2 bytes @ 0x20000000)  returns TRUE (0002ms, 2136ms total)
T63B4 002:657 JLINK_ReadReg(R15 (PC))  returns 0x20000000 (0000ms, 2134ms total)
T63B4 002:657 JLINK_ClrBPEx(BPHandle = 0x00000008)  returns 0x00 (0000ms, 2134ms total)
T63B4 002:657 JLINK_ReadReg(R0)  returns 0x00000001 (0000ms, 2134ms total)
T63B4 002:657 JLINK_WriteReg(R0, 0x00000600)  returns 0x00 (0000ms, 2134ms total)
T63B4 002:657 JLINK_WriteReg(R1, 0x00000200)  returns 0x00 (0000ms, 2134ms total)
T63B4 002:657 JLINK_WriteReg(R2, 0x000000FF)  returns 0x00 (0000ms, 2134ms total)
T63B4 002:657 JLINK_WriteReg(R3, 0x00000000)  returns 0x00 (0000ms, 2134ms total)
T63B4 002:657 JLINK_WriteReg(R4, 0x00000000)  returns 0x00 (0000ms, 2134ms total)
T63B4 002:657 JLINK_WriteReg(R5, 0x00000000)  returns 0x00 (0000ms, 2134ms total)
T63B4 002:657 JLINK_WriteReg(R6, 0x00000000)  returns 0x00 (0000ms, 2134ms total)
T63B4 002:657 JLINK_WriteReg(R7, 0x00000000)  returns 0x00 (0000ms, 2134ms total)
T63B4 002:657 JLINK_WriteReg(R8, 0x00000000)  returns 0x00 (0000ms, 2134ms total)
T63B4 002:657 JLINK_WriteReg(R9, 0x20000118)  returns 0x00 (0000ms, 2134ms total)
T63B4 002:657 JLINK_WriteReg(R10, 0x00000000)  returns 0x00 (0000ms, 2134ms total)
T63B4 002:657 JLINK_WriteReg(R11, 0x00000000)  returns 0x00 (0000ms, 2134ms total)
T63B4 002:657 JLINK_WriteReg(R12, 0x00000000)  returns 0x00 (0000ms, 2134ms total)
T63B4 002:657 JLINK_WriteReg(R13 (SP), 0x20001000)  returns 0x00 (0000ms, 2134ms total)
T63B4 002:657 JLINK_WriteReg(R14, 0x20000001)  returns 0x00 (0000ms, 2134ms total)
T63B4 002:657 JLINK_WriteReg(R15 (PC), 0x20000084)  returns 0x00 (0000ms, 2134ms total)
T63B4 002:657 JLINK_WriteReg(XPSR, 0x01000000)  returns 0x00 (0000ms, 2134ms total)
T63B4 002:657 JLINK_WriteReg(MSP, 0x20001000)  returns 0x00 (0000ms, 2134ms total)
T63B4 002:657 JLINK_WriteReg(PSP, 0x20001000)  returns 0x00 (0000ms, 2134ms total)
T63B4 002:657 JLINK_WriteReg(CFBP, 0x00000000)  returns 0x00 (0000ms, 2134ms total)
T63B4 002:657 JLINK_SetBPEx(Addr = 0x20000000, Type = 0xFFFFFFF2)  returns 0x00000009 (0000ms, 2134ms total)
T63B4 002:657 JLINK_Go() -- CPU_ReadMem(4 bytes @ 0xE0001000) -- CPU_WriteMem(4 bytes @ 0xE0001000) (0002ms, 2136ms total)
T63B4 002:659 JLINK_IsHalted()  returns FALSE (0001ms, 2137ms total)
T63B4 002:663 JLINK_IsHalted()  returns FALSE (0001ms, 2137ms total)
T63B4 002:666 JLINK_IsHalted() -- CPU_ReadMem(2 bytes @ 0x20000000)  returns TRUE (0002ms, 2138ms total)
T63B4 002:668 JLINK_ReadReg(R15 (PC))  returns 0x20000000 (0000ms, 2136ms total)
T63B4 002:668 JLINK_ClrBPEx(BPHandle = 0x00000009)  returns 0x00 (0000ms, 2136ms total)
T63B4 002:668 JLINK_ReadReg(R0)  returns 0x00000000 (0000ms, 2136ms total)
T63B4 002:668 JLINK_WriteReg(R0, 0x00000800)  returns 0x00 (0000ms, 2136ms total)
T63B4 002:668 JLINK_WriteReg(R1, 0x00000200)  returns 0x00 (0000ms, 2136ms total)
T63B4 002:668 JLINK_WriteReg(R2, 0x000000FF)  returns 0x00 (0000ms, 2136ms total)
T63B4 002:668 JLINK_WriteReg(R3, 0x00000000)  returns 0x00 (0000ms, 2136ms total)
T63B4 002:668 JLINK_WriteReg(R4, 0x00000000)  returns 0x00 (0000ms, 2136ms total)
T63B4 002:668 JLINK_WriteReg(R5, 0x00000000)  returns 0x00 (0001ms, 2137ms total)
T63B4 002:669 JLINK_WriteReg(R6, 0x00000000)  returns 0x00 (0000ms, 2137ms total)
T63B4 002:669 JLINK_WriteReg(R7, 0x00000000)  returns 0x00 (0000ms, 2137ms total)
T63B4 002:669 JLINK_WriteReg(R8, 0x00000000)  returns 0x00 (0000ms, 2137ms total)
T63B4 002:669 JLINK_WriteReg(R9, 0x20000118)  returns 0x00 (0000ms, 2137ms total)
T63B4 002:669 JLINK_WriteReg(R10, 0x00000000)  returns 0x00 (0000ms, 2137ms total)
T63B4 002:669 JLINK_WriteReg(R11, 0x00000000)  returns 0x00 (0000ms, 2137ms total)
T63B4 002:669 JLINK_WriteReg(R12, 0x00000000)  returns 0x00 (0000ms, 2137ms total)
T63B4 002:669 JLINK_WriteReg(R13 (SP), 0x20001000)  returns 0x00 (0000ms, 2137ms total)
T63B4 002:669 JLINK_WriteReg(R14, 0x20000001)  returns 0x00 (0000ms, 2137ms total)
T63B4 002:669 JLINK_WriteReg(R15 (PC), 0x20000020)  returns 0x00 (0000ms, 2137ms total)
T63B4 002:669 JLINK_WriteReg(XPSR, 0x01000000)  returns 0x00 (0000ms, 2137ms total)
T63B4 002:669 JLINK_WriteReg(MSP, 0x20001000)  returns 0x00 (0000ms, 2137ms total)
T63B4 002:669 JLINK_WriteReg(PSP, 0x20001000)  returns 0x00 (0000ms, 2137ms total)
T63B4 002:669 JLINK_WriteReg(CFBP, 0x00000000)  returns 0x00 (0000ms, 2137ms total)
T63B4 002:669 JLINK_SetBPEx(Addr = 0x20000000, Type = 0xFFFFFFF2)  returns 0x0000000A (0000ms, 2137ms total)
T63B4 002:669 JLINK_Go() -- CPU_ReadMem(4 bytes @ 0xE0001000) -- CPU_WriteMem(4 bytes @ 0xE0001000) (0002ms, 2139ms total)
T63B4 002:671 JLINK_IsHalted() -- CPU_ReadMem(2 bytes @ 0x20000000)  returns TRUE (0002ms, 2141ms total)
T63B4 002:673 JLINK_ReadReg(R15 (PC))  returns 0x20000000 (0000ms, 2139ms total)
T63B4 002:673 JLINK_ClrBPEx(BPHandle = 0x0000000A)  returns 0x00 (0000ms, 2139ms total)
T63B4 002:673 JLINK_ReadReg(R0)  returns 0x00000001 (0000ms, 2139ms total)
T63B4 002:673 JLINK_WriteReg(R0, 0x00000800)  returns 0x00 (0000ms, 2139ms total)
T63B4 002:673 JLINK_WriteReg(R1, 0x00000200)  returns 0x00 (0000ms, 2139ms total)
T63B4 002:673 JLINK_WriteReg(R2, 0x000000FF)  returns 0x00 (0000ms, 2139ms total)
T63B4 002:673 JLINK_WriteReg(R3, 0x00000000)  returns 0x00 (0000ms, 2139ms total)
T63B4 002:673 JLINK_WriteReg(R4, 0x00000000)  returns 0x00 (0000ms, 2139ms total)
T63B4 002:673 JLINK_WriteReg(R5, 0x00000000)  returns 0x00 (0000ms, 2139ms total)
T63B4 002:673 JLINK_WriteReg(R6, 0x00000000)  returns 0x00 (0000ms, 2139ms total)
T63B4 002:673 JLINK_WriteReg(R7, 0x00000000)  returns 0x00 (0000ms, 2139ms total)
T63B4 002:673 JLINK_WriteReg(R8, 0x00000000)  returns 0x00 (0000ms, 2139ms total)
T63B4 002:673 JLINK_WriteReg(R9, 0x20000118)  returns 0x00 (0000ms, 2139ms total)
T63B4 002:673 JLINK_WriteReg(R10, 0x00000000)  returns 0x00 (0000ms, 2139ms total)
T63B4 002:673 JLINK_WriteReg(R11, 0x00000000)  returns 0x00 (0000ms, 2139ms total)
T63B4 002:673 JLINK_WriteReg(R12, 0x00000000)  returns 0x00 (0000ms, 2139ms total)
T63B4 002:673 JLINK_WriteReg(R13 (SP), 0x20001000)  returns 0x00 (0000ms, 2139ms total)
T63B4 002:673 JLINK_WriteReg(R14, 0x20000001)  returns 0x00 (0000ms, 2139ms total)
T63B4 002:673 JLINK_WriteReg(R15 (PC), 0x20000084)  returns 0x00 (0000ms, 2139ms total)
T63B4 002:673 JLINK_WriteReg(XPSR, 0x01000000)  returns 0x00 (0000ms, 2139ms total)
T63B4 002:673 JLINK_WriteReg(MSP, 0x20001000)  returns 0x00 (0000ms, 2139ms total)
T63B4 002:673 JLINK_WriteReg(PSP, 0x20001000)  returns 0x00 (0000ms, 2139ms total)
T63B4 002:673 JLINK_WriteReg(CFBP, 0x00000000)  returns 0x00 (0000ms, 2139ms total)
T63B4 002:673 JLINK_SetBPEx(Addr = 0x20000000, Type = 0xFFFFFFF2)  returns 0x0000000B (0000ms, 2139ms total)
T63B4 002:673 JLINK_Go() -- CPU_ReadMem(4 bytes @ 0xE0001000) -- CPU_WriteMem(4 bytes @ 0xE0001000) (0003ms, 2142ms total)
T63B4 002:676 JLINK_IsHalted()  returns FALSE (0000ms, 2142ms total)
T63B4 002:678 JLINK_IsHalted()  returns FALSE (0000ms, 2142ms total)
T63B4 002:680 JLINK_IsHalted() -- CPU_ReadMem(2 bytes @ 0x20000000)  returns TRUE (0002ms, 2144ms total)
T63B4 002:682 JLINK_ReadReg(R15 (PC))  returns 0x20000000 (0000ms, 2142ms total)
T63B4 002:682 JLINK_ClrBPEx(BPHandle = 0x0000000B)  returns 0x00 (0000ms, 2142ms total)
T63B4 002:682 JLINK_ReadReg(R0)  returns 0x00000000 (0000ms, 2142ms total)
T63B4 002:683 JLINK_WriteReg(R0, 0x00000A00)  returns 0x00 (0000ms, 2142ms total)
T63B4 002:683 JLINK_WriteReg(R1, 0x00000200)  returns 0x00 (0000ms, 2142ms total)
T63B4 002:683 JLINK_WriteReg(R2, 0x000000FF)  returns 0x00 (0000ms, 2142ms total)
T63B4 002:683 JLINK_WriteReg(R3, 0x00000000)  returns 0x00 (0000ms, 2142ms total)
T63B4 002:683 JLINK_WriteReg(R4, 0x00000000)  returns 0x00 (0000ms, 2142ms total)
T63B4 002:683 JLINK_WriteReg(R5, 0x00000000)  returns 0x00 (0000ms, 2142ms total)
T63B4 002:683 JLINK_WriteReg(R6, 0x00000000)  returns 0x00 (0000ms, 2142ms total)
T63B4 002:683 JLINK_WriteReg(R7, 0x00000000)  returns 0x00 (0000ms, 2142ms total)
T63B4 002:683 JLINK_WriteReg(R8, 0x00000000)  returns 0x00 (0000ms, 2142ms total)
T63B4 002:683 JLINK_WriteReg(R9, 0x20000118)  returns 0x00 (0000ms, 2142ms total)
T63B4 002:683 JLINK_WriteReg(R10, 0x00000000)  returns 0x00 (0000ms, 2142ms total)
T63B4 002:683 JLINK_WriteReg(R11, 0x00000000)  returns 0x00 (0000ms, 2142ms total)
T63B4 002:683 JLINK_WriteReg(R12, 0x00000000)  returns 0x00 (0000ms, 2142ms total)
T63B4 002:683 JLINK_WriteReg(R13 (SP), 0x20001000)  returns 0x00 (0000ms, 2142ms total)
T63B4 002:683 JLINK_WriteReg(R14, 0x20000001)  returns 0x00 (0000ms, 2142ms total)
T63B4 002:683 JLINK_WriteReg(R15 (PC), 0x20000020)  returns 0x00 (0000ms, 2142ms total)
T63B4 002:683 JLINK_WriteReg(XPSR, 0x01000000)  returns 0x00 (0000ms, 2142ms total)
T63B4 002:683 JLINK_WriteReg(MSP, 0x20001000)  returns 0x00 (0000ms, 2142ms total)
T63B4 002:683 JLINK_WriteReg(PSP, 0x20001000)  returns 0x00 (0000ms, 2142ms total)
T63B4 002:683 JLINK_WriteReg(CFBP, 0x00000000)  returns 0x00 (0000ms, 2142ms total)
T63B4 002:683 JLINK_SetBPEx(Addr = 0x20000000, Type = 0xFFFFFFF2)  returns 0x0000000C (0000ms, 2142ms total)
T63B4 002:683 JLINK_Go() -- CPU_ReadMem(4 bytes @ 0xE0001000) -- CPU_WriteMem(4 bytes @ 0xE0001000) (0003ms, 2145ms total)
T63B4 002:686 JLINK_IsHalted() -- CPU_ReadMem(2 bytes @ 0x20000000)  returns TRUE (0001ms, 2146ms total)
T63B4 002:687 JLINK_ReadReg(R15 (PC))  returns 0x20000000 (0000ms, 2145ms total)
T63B4 002:687 JLINK_ClrBPEx(BPHandle = 0x0000000C)  returns 0x00 (0000ms, 2145ms total)
T63B4 002:687 JLINK_ReadReg(R0)  returns 0x00000001 (0000ms, 2145ms total)
T63B4 002:687 JLINK_WriteReg(R0, 0x00000A00)  returns 0x00 (0000ms, 2145ms total)
T63B4 002:687 JLINK_WriteReg(R1, 0x00000200)  returns 0x00 (0000ms, 2145ms total)
T63B4 002:687 JLINK_WriteReg(R2, 0x000000FF)  returns 0x00 (0000ms, 2145ms total)
T63B4 002:687 JLINK_WriteReg(R3, 0x00000000)  returns 0x00 (0000ms, 2145ms total)
T63B4 002:687 JLINK_WriteReg(R4, 0x00000000)  returns 0x00 (0000ms, 2145ms total)
T63B4 002:688 JLINK_WriteReg(R5, 0x00000000)  returns 0x00 (0000ms, 2146ms total)
T63B4 002:688 JLINK_WriteReg(R6, 0x00000000)  returns 0x00 (0000ms, 2146ms total)
T63B4 002:688 JLINK_WriteReg(R7, 0x00000000)  returns 0x00 (0000ms, 2146ms total)
T63B4 002:688 JLINK_WriteReg(R8, 0x00000000)  returns 0x00 (0000ms, 2146ms total)
T63B4 002:688 JLINK_WriteReg(R9, 0x20000118)  returns 0x00 (0000ms, 2146ms total)
T63B4 002:688 JLINK_WriteReg(R10, 0x00000000)  returns 0x00 (0000ms, 2146ms total)
T63B4 002:688 JLINK_WriteReg(R11, 0x00000000)  returns 0x00 (0000ms, 2146ms total)
T63B4 002:688 JLINK_WriteReg(R12, 0x00000000)  returns 0x00 (0000ms, 2146ms total)
T63B4 002:688 JLINK_WriteReg(R13 (SP), 0x20001000)  returns 0x00 (0000ms, 2146ms total)
T63B4 002:688 JLINK_WriteReg(R14, 0x20000001)  returns 0x00 (0000ms, 2146ms total)
T63B4 002:688 JLINK_WriteReg(R15 (PC), 0x20000084)  returns 0x00 (0000ms, 2146ms total)
T63B4 002:688 JLINK_WriteReg(XPSR, 0x01000000)  returns 0x00 (0000ms, 2146ms total)
T63B4 002:688 JLINK_WriteReg(MSP, 0x20001000)  returns 0x00 (0000ms, 2146ms total)
T63B4 002:688 JLINK_WriteReg(PSP, 0x20001000)  returns 0x00 (0000ms, 2146ms total)
T63B4 002:688 JLINK_WriteReg(CFBP, 0x00000000)  returns 0x00 (0000ms, 2146ms total)
T63B4 002:688 JLINK_SetBPEx(Addr = 0x20000000, Type = 0xFFFFFFF2)  returns 0x0000000D (0000ms, 2146ms total)
T63B4 002:688 JLINK_Go() -- CPU_ReadMem(4 bytes @ 0xE0001000) -- CPU_WriteMem(4 bytes @ 0xE0001000) (0002ms, 2148ms total)
T63B4 002:690 JLINK_IsHalted()  returns FALSE (0001ms, 2149ms total)
T63B4 002:697 JLINK_IsHalted() -- CPU_ReadMem(2 bytes @ 0x20000000)  returns TRUE (0002ms, 2150ms total)
T63B4 002:699 JLINK_ReadReg(R15 (PC))  returns 0x20000000 (0000ms, 2148ms total)
T63B4 002:699 JLINK_ClrBPEx(BPHandle = 0x0000000D)  returns 0x00 (0000ms, 2148ms total)
T63B4 002:699 JLINK_ReadReg(R0)  returns 0x00000000 (0000ms, 2148ms total)
T63B4 002:700 JLINK_WriteReg(R0, 0x00000C00)  returns 0x00 (0000ms, 2148ms total)
T63B4 002:700 JLINK_WriteReg(R1, 0x00000200)  returns 0x00 (0000ms, 2148ms total)
T63B4 002:700 JLINK_WriteReg(R2, 0x000000FF)  returns 0x00 (0000ms, 2148ms total)
T63B4 002:700 JLINK_WriteReg(R3, 0x00000000)  returns 0x00 (0000ms, 2148ms total)
T63B4 002:700 JLINK_WriteReg(R4, 0x00000000)  returns 0x00 (0000ms, 2148ms total)
T63B4 002:700 JLINK_WriteReg(R5, 0x00000000)  returns 0x00 (0000ms, 2148ms total)
T63B4 002:700 JLINK_WriteReg(R6, 0x00000000)  returns 0x00 (0000ms, 2148ms total)
T63B4 002:700 JLINK_WriteReg(R7, 0x00000000)  returns 0x00 (0000ms, 2148ms total)
T63B4 002:700 JLINK_WriteReg(R8, 0x00000000)  returns 0x00 (0000ms, 2148ms total)
T63B4 002:700 JLINK_WriteReg(R9, 0x20000118)  returns 0x00 (0000ms, 2148ms total)
T63B4 002:700 JLINK_WriteReg(R10, 0x00000000)  returns 0x00 (0000ms, 2148ms total)
T63B4 002:700 JLINK_WriteReg(R11, 0x00000000)  returns 0x00 (0000ms, 2148ms total)
T63B4 002:700 JLINK_WriteReg(R12, 0x00000000)  returns 0x00 (0000ms, 2148ms total)
T63B4 002:700 JLINK_WriteReg(R13 (SP), 0x20001000)  returns 0x00 (0000ms, 2148ms total)
T63B4 002:700 JLINK_WriteReg(R14, 0x20000001)  returns 0x00 (0000ms, 2148ms total)
T63B4 002:700 JLINK_WriteReg(R15 (PC), 0x20000020)  returns 0x00 (0000ms, 2148ms total)
T63B4 002:700 JLINK_WriteReg(XPSR, 0x01000000)  returns 0x00 (0000ms, 2148ms total)
T63B4 002:700 JLINK_WriteReg(MSP, 0x20001000)  returns 0x00 (0000ms, 2148ms total)
T63B4 002:700 JLINK_WriteReg(PSP, 0x20001000)  returns 0x00 (0000ms, 2148ms total)
T63B4 002:700 JLINK_WriteReg(CFBP, 0x00000000)  returns 0x00 (0000ms, 2148ms total)
T63B4 002:700 JLINK_SetBPEx(Addr = 0x20000000, Type = 0xFFFFFFF2)  returns 0x0000000E (0000ms, 2148ms total)
T63B4 002:700 JLINK_Go() -- CPU_ReadMem(4 bytes @ 0xE0001000) -- CPU_WriteMem(4 bytes @ 0xE0001000) (0003ms, 2151ms total)
T63B4 002:703 JLINK_IsHalted() -- CPU_ReadMem(2 bytes @ 0x20000000)  returns TRUE (0001ms, 2152ms total)
T63B4 002:704 JLINK_ReadReg(R15 (PC))  returns 0x20000000 (0000ms, 2151ms total)
T63B4 002:704 JLINK_ClrBPEx(BPHandle = 0x0000000E)  returns 0x00 (0000ms, 2151ms total)
T63B4 002:704 JLINK_ReadReg(R0)  returns 0x00000001 (0000ms, 2151ms total)
T63B4 002:704 JLINK_WriteReg(R0, 0x00000C00)  returns 0x00 (0000ms, 2151ms total)
T63B4 002:704 JLINK_WriteReg(R1, 0x00000200)  returns 0x00 (0000ms, 2151ms total)
T63B4 002:704 JLINK_WriteReg(R2, 0x000000FF)  returns 0x00 (0000ms, 2151ms total)
T63B4 002:704 JLINK_WriteReg(R3, 0x00000000)  returns 0x00 (0000ms, 2151ms total)
T63B4 002:704 JLINK_WriteReg(R4, 0x00000000)  returns 0x00 (0000ms, 2151ms total)
T63B4 002:704 JLINK_WriteReg(R5, 0x00000000)  returns 0x00 (0000ms, 2151ms total)
T63B4 002:704 JLINK_WriteReg(R6, 0x00000000)  returns 0x00 (0000ms, 2151ms total)
T63B4 002:704 JLINK_WriteReg(R7, 0x00000000)  returns 0x00 (0000ms, 2151ms total)
T63B4 002:704 JLINK_WriteReg(R8, 0x00000000)  returns 0x00 (0000ms, 2151ms total)
T63B4 002:704 JLINK_WriteReg(R9, 0x20000118)  returns 0x00 (0000ms, 2151ms total)
T63B4 002:704 JLINK_WriteReg(R10, 0x00000000)  returns 0x00 (0000ms, 2151ms total)
T63B4 002:705 JLINK_WriteReg(R11, 0x00000000)  returns 0x00 (0000ms, 2152ms total)
T63B4 002:705 JLINK_WriteReg(R12, 0x00000000)  returns 0x00 (0000ms, 2152ms total)
T63B4 002:705 JLINK_WriteReg(R13 (SP), 0x20001000)  returns 0x00 (0000ms, 2152ms total)
T63B4 002:705 JLINK_WriteReg(R14, 0x20000001)  returns 0x00 (0000ms, 2152ms total)
T63B4 002:705 JLINK_WriteReg(R15 (PC), 0x20000084)  returns 0x00 (0000ms, 2152ms total)
T63B4 002:705 JLINK_WriteReg(XPSR, 0x01000000)  returns 0x00 (0000ms, 2152ms total)
T63B4 002:705 JLINK_WriteReg(MSP, 0x20001000)  returns 0x00 (0000ms, 2152ms total)
T63B4 002:705 JLINK_WriteReg(PSP, 0x20001000)  returns 0x00 (0000ms, 2152ms total)
T63B4 002:705 JLINK_WriteReg(CFBP, 0x00000000)  returns 0x00 (0000ms, 2152ms total)
T63B4 002:705 JLINK_SetBPEx(Addr = 0x20000000, Type = 0xFFFFFFF2)  returns 0x0000000F (0000ms, 2152ms total)
T63B4 002:705 JLINK_Go() -- CPU_ReadMem(4 bytes @ 0xE0001000) -- CPU_WriteMem(4 bytes @ 0xE0001000) (0002ms, 2154ms total)
T63B4 002:707 JLINK_IsHalted()  returns FALSE (0000ms, 2154ms total)
T63B4 002:709 JLINK_IsHalted()  returns FALSE (0001ms, 2155ms total)
T63B4 002:712 JLINK_IsHalted() -- CPU_ReadMem(2 bytes @ 0x20000000)  returns TRUE (0002ms, 2156ms total)
T63B4 002:714 JLINK_ReadReg(R15 (PC))  returns 0x20000000 (0000ms, 2154ms total)
T63B4 002:714 JLINK_ClrBPEx(BPHandle = 0x0000000F)  returns 0x00 (0000ms, 2154ms total)
T63B4 002:714 JLINK_ReadReg(R0)  returns 0x00000000 (0000ms, 2154ms total)
T63B4 002:715 JLINK_WriteReg(R0, 0x00000E00)  returns 0x00 (0000ms, 2154ms total)
T63B4 002:715 JLINK_WriteReg(R1, 0x00000200)  returns 0x00 (0000ms, 2154ms total)
T63B4 002:715 JLINK_WriteReg(R2, 0x000000FF)  returns 0x00 (0000ms, 2154ms total)
T63B4 002:715 JLINK_WriteReg(R3, 0x00000000)  returns 0x00 (0000ms, 2154ms total)
T63B4 002:715 JLINK_WriteReg(R4, 0x00000000)  returns 0x00 (0000ms, 2154ms total)
T63B4 002:715 JLINK_WriteReg(R5, 0x00000000)  returns 0x00 (0000ms, 2154ms total)
T63B4 002:715 JLINK_WriteReg(R6, 0x00000000)  returns 0x00 (0000ms, 2154ms total)
T63B4 002:715 JLINK_WriteReg(R7, 0x00000000)  returns 0x00 (0000ms, 2154ms total)
T63B4 002:715 JLINK_WriteReg(R8, 0x00000000)  returns 0x00 (0000ms, 2154ms total)
T63B4 002:715 JLINK_WriteReg(R9, 0x20000118)  returns 0x00 (0000ms, 2154ms total)
T63B4 002:715 JLINK_WriteReg(R10, 0x00000000)  returns 0x00 (0000ms, 2154ms total)
T63B4 002:715 JLINK_WriteReg(R11, 0x00000000)  returns 0x00 (0000ms, 2154ms total)
T63B4 002:715 JLINK_WriteReg(R12, 0x00000000)  returns 0x00 (0000ms, 2154ms total)
T63B4 002:715 JLINK_WriteReg(R13 (SP), 0x20001000)  returns 0x00 (0000ms, 2154ms total)
T63B4 002:715 JLINK_WriteReg(R14, 0x20000001)  returns 0x00 (0000ms, 2154ms total)
T63B4 002:715 JLINK_WriteReg(R15 (PC), 0x20000020)  returns 0x00 (0000ms, 2154ms total)
T63B4 002:715 JLINK_WriteReg(XPSR, 0x01000000)  returns 0x00 (0000ms, 2154ms total)
T63B4 002:715 JLINK_WriteReg(MSP, 0x20001000)  returns 0x00 (0000ms, 2154ms total)
T63B4 002:715 JLINK_WriteReg(PSP, 0x20001000)  returns 0x00 (0000ms, 2154ms total)
T63B4 002:715 JLINK_WriteReg(CFBP, 0x00000000)  returns 0x00 (0000ms, 2154ms total)
T63B4 002:715 JLINK_SetBPEx(Addr = 0x20000000, Type = 0xFFFFFFF2)  returns 0x00000010 (0000ms, 2154ms total)
T63B4 002:715 JLINK_Go() -- CPU_ReadMem(4 bytes @ 0xE0001000) -- CPU_WriteMem(4 bytes @ 0xE0001000) (0001ms, 2155ms total)
T63B4 002:716 JLINK_IsHalted() -- CPU_ReadMem(2 bytes @ 0x20000000)  returns TRUE (0003ms, 2158ms total)
T63B4 002:719 JLINK_ReadReg(R15 (PC))  returns 0x20000000 (0000ms, 2155ms total)
T63B4 002:719 JLINK_ClrBPEx(BPHandle = 0x00000010)  returns 0x00 (0000ms, 2155ms total)
T63B4 002:719 JLINK_ReadReg(R0)  returns 0x00000001 (0000ms, 2155ms total)
T63B4 002:719 JLINK_WriteReg(R0, 0x00000E00)  returns 0x00 (0000ms, 2155ms total)
T63B4 002:719 JLINK_WriteReg(R1, 0x00000200)  returns 0x00 (0000ms, 2155ms total)
T63B4 002:719 JLINK_WriteReg(R2, 0x000000FF)  returns 0x00 (0000ms, 2155ms total)
T63B4 002:719 JLINK_WriteReg(R3, 0x00000000)  returns 0x00 (0000ms, 2155ms total)
T63B4 002:719 JLINK_WriteReg(R4, 0x00000000)  returns 0x00 (0000ms, 2155ms total)
T63B4 002:719 JLINK_WriteReg(R5, 0x00000000)  returns 0x00 (0000ms, 2155ms total)
T63B4 002:719 JLINK_WriteReg(R6, 0x00000000)  returns 0x00 (0000ms, 2155ms total)
T63B4 002:719 JLINK_WriteReg(R7, 0x00000000)  returns 0x00 (0000ms, 2155ms total)
T63B4 002:719 JLINK_WriteReg(R8, 0x00000000)  returns 0x00 (0000ms, 2155ms total)
T63B4 002:719 JLINK_WriteReg(R9, 0x20000118)  returns 0x00 (0000ms, 2155ms total)
T63B4 002:719 JLINK_WriteReg(R10, 0x00000000)  returns 0x00 (0000ms, 2155ms total)
T63B4 002:719 JLINK_WriteReg(R11, 0x00000000)  returns 0x00 (0000ms, 2155ms total)
T63B4 002:719 JLINK_WriteReg(R12, 0x00000000)  returns 0x00 (0000ms, 2155ms total)
T63B4 002:719 JLINK_WriteReg(R13 (SP), 0x20001000)  returns 0x00 (0000ms, 2155ms total)
T63B4 002:719 JLINK_WriteReg(R14, 0x20000001)  returns 0x00 (0000ms, 2155ms total)
T63B4 002:719 JLINK_WriteReg(R15 (PC), 0x20000084)  returns 0x00 (0000ms, 2155ms total)
T63B4 002:719 JLINK_WriteReg(XPSR, 0x01000000)  returns 0x00 (0000ms, 2155ms total)
T63B4 002:719 JLINK_WriteReg(MSP, 0x20001000)  returns 0x00 (0000ms, 2155ms total)
T63B4 002:719 JLINK_WriteReg(PSP, 0x20001000)  returns 0x00 (0000ms, 2155ms total)
T63B4 002:719 JLINK_WriteReg(CFBP, 0x00000000)  returns 0x00 (0000ms, 2155ms total)
T63B4 002:719 JLINK_SetBPEx(Addr = 0x20000000, Type = 0xFFFFFFF2)  returns 0x00000011 (0000ms, 2155ms total)
T63B4 002:719 JLINK_Go() -- CPU_ReadMem(4 bytes @ 0xE0001000) -- CPU_WriteMem(4 bytes @ 0xE0001000) (0002ms, 2157ms total)
T63B4 002:721 JLINK_IsHalted()  returns FALSE (0000ms, 2157ms total)
T63B4 002:724 JLINK_IsHalted()  returns FALSE (0000ms, 2157ms total)
T63B4 002:726 JLINK_IsHalted() -- CPU_ReadMem(2 bytes @ 0x20000000)  returns TRUE (0002ms, 2159ms total)
T63B4 002:728 JLINK_ReadReg(R15 (PC))  returns 0x20000000 (0000ms, 2157ms total)
T63B4 002:728 JLINK_ClrBPEx(BPHandle = 0x00000011)  returns 0x00 (0000ms, 2157ms total)
T63B4 002:728 JLINK_ReadReg(R0)  returns 0x00000000 (0000ms, 2157ms total)
T63B4 002:728 JLINK_WriteReg(R0, 0x00001000)  returns 0x00 (0000ms, 2157ms total)
T63B4 002:728 JLINK_WriteReg(R1, 0x00000200)  returns 0x00 (0000ms, 2157ms total)
T63B4 002:728 JLINK_WriteReg(R2, 0x000000FF)  returns 0x00 (0000ms, 2157ms total)
T63B4 002:728 JLINK_WriteReg(R3, 0x00000000)  returns 0x00 (0000ms, 2157ms total)
T63B4 002:728 JLINK_WriteReg(R4, 0x00000000)  returns 0x00 (0000ms, 2157ms total)
T63B4 002:728 JLINK_WriteReg(R5, 0x00000000)  returns 0x00 (0000ms, 2157ms total)
T63B4 002:728 JLINK_WriteReg(R6, 0x00000000)  returns 0x00 (0000ms, 2157ms total)
T63B4 002:728 JLINK_WriteReg(R7, 0x00000000)  returns 0x00 (0000ms, 2157ms total)
T63B4 002:728 JLINK_WriteReg(R8, 0x00000000)  returns 0x00 (0000ms, 2157ms total)
T63B4 002:728 JLINK_WriteReg(R9, 0x20000118)  returns 0x00 (0000ms, 2157ms total)
T63B4 002:728 JLINK_WriteReg(R10, 0x00000000)  returns 0x00 (0000ms, 2157ms total)
T63B4 002:728 JLINK_WriteReg(R11, 0x00000000)  returns 0x00 (0000ms, 2157ms total)
T63B4 002:728 JLINK_WriteReg(R12, 0x00000000)  returns 0x00 (0000ms, 2157ms total)
T63B4 002:728 JLINK_WriteReg(R13 (SP), 0x20001000)  returns 0x00 (0000ms, 2157ms total)
T63B4 002:728 JLINK_WriteReg(R14, 0x20000001)  returns 0x00 (0001ms, 2158ms total)
T63B4 002:729 JLINK_WriteReg(R15 (PC), 0x20000020)  returns 0x00 (0000ms, 2158ms total)
T63B4 002:729 JLINK_WriteReg(XPSR, 0x01000000)  returns 0x00 (0000ms, 2158ms total)
T63B4 002:729 JLINK_WriteReg(MSP, 0x20001000)  returns 0x00 (0000ms, 2158ms total)
T63B4 002:729 JLINK_WriteReg(PSP, 0x20001000)  returns 0x00 (0000ms, 2158ms total)
T63B4 002:729 JLINK_WriteReg(CFBP, 0x00000000)  returns 0x00 (0000ms, 2158ms total)
T63B4 002:729 JLINK_SetBPEx(Addr = 0x20000000, Type = 0xFFFFFFF2)  returns 0x00000012 (0000ms, 2158ms total)
T63B4 002:729 JLINK_Go() -- CPU_ReadMem(4 bytes @ 0xE0001000) -- CPU_WriteMem(4 bytes @ 0xE0001000) (0002ms, 2160ms total)
T63B4 002:731 JLINK_IsHalted() -- CPU_ReadMem(2 bytes @ 0x20000000)  returns TRUE (0002ms, 2162ms total)
T63B4 002:733 JLINK_ReadReg(R15 (PC))  returns 0x20000000 (0000ms, 2160ms total)
T63B4 002:733 JLINK_ClrBPEx(BPHandle = 0x00000012)  returns 0x00 (0000ms, 2160ms total)
T63B4 002:733 JLINK_ReadReg(R0)  returns 0x00000001 (0000ms, 2160ms total)
T63B4 002:733 JLINK_WriteReg(R0, 0x00001000)  returns 0x00 (0000ms, 2160ms total)
T63B4 002:733 JLINK_WriteReg(R1, 0x00000200)  returns 0x00 (0000ms, 2160ms total)
T63B4 002:733 JLINK_WriteReg(R2, 0x000000FF)  returns 0x00 (0000ms, 2160ms total)
T63B4 002:733 JLINK_WriteReg(R3, 0x00000000)  returns 0x00 (0000ms, 2160ms total)
T63B4 002:733 JLINK_WriteReg(R4, 0x00000000)  returns 0x00 (0000ms, 2160ms total)
